[WARNING ORD-0039] .openroad ignored with -python
Unannotated report:
['report_parasitic_annotation -report_unannotated\n',
 '============================================================================\n',
 'Found 100 unannotated drivers.\n',
 ' axi_araddr_i[0]\n',
 ' axi_araddr_i[10]\n',
 ' axi_araddr_i[11]\n',
 ' axi_araddr_i[12]\n',
 ' axi_araddr_i[13]\n',
 ' axi_araddr_i[14]\n',
 ' axi_araddr_i[15]\n',
 ' axi_araddr_i[16]\n',
 ' axi_araddr_i[17]\n',
 ' axi_araddr_i[18]\n',
 ' axi_araddr_i[19]\n',
 ' axi_araddr_i[1]\n',
 ' axi_araddr_i[20]\n',
 ' axi_araddr_i[21]\n',
 ' axi_araddr_i[22]\n',
 ' axi_araddr_i[23]\n',
 ' axi_araddr_i[24]\n',
 ' axi_araddr_i[25]\n',
 ' axi_araddr_i[26]\n',
 ' axi_araddr_i[27]\n',
 ' axi_araddr_i[28]\n',
 ' axi_araddr_i[29]\n',
 ' axi_araddr_i[30]\n',
 ' axi_araddr_i[31]\n',
 ' axi_arprot_i[0]\n',
 ' axi_arprot_i[1]\n',
 ' axi_arprot_i[2]\n',
 ' axi_awaddr_i[0]\n',
 ' axi_awaddr_i[10]\n',
 ' axi_awaddr_i[11]\n',
 ' axi_awaddr_i[12]\n',
 ' axi_awaddr_i[13]\n',
 ' axi_awaddr_i[14]\n',
 ' axi_awaddr_i[15]\n',
 ' axi_awaddr_i[16]\n',
 ' axi_awaddr_i[17]\n',
 ' axi_awaddr_i[18]\n',
 ' axi_awaddr_i[19]\n',
 ' axi_awaddr_i[1]\n',
 ' axi_awaddr_i[20]\n',
 ' axi_awaddr_i[21]\n',
 ' axi_awaddr_i[22]\n',
 ' axi_awaddr_i[23]\n',
 ' axi_awaddr_i[24]\n',
 ' axi_awaddr_i[25]\n',
 ' axi_awaddr_i[26]\n',
 ' axi_awaddr_i[27]\n',
 ' axi_awaddr_i[28]\n',
 ' axi_awaddr_i[29]\n',
 ' axi_awaddr_i[30]\n',
 ' axi_awaddr_i[31]\n',
 ' axi_awprot_i[0]\n',
 ' axi_awprot_i[1]\n',
 ' axi_awprot_i[2]\n',
 ' _49_/LO\n',
 ' _50_/HI\n',
 ' _51_/HI\n',
 ' _52_/HI\n',
 ' _53_/HI\n',
 ' _54_/HI\n',
 ' _55_/HI\n',
 ' _56_/HI\n',
 ' _57_/HI\n',
 ' _58_/HI\n',
 ' _59_/HI\n',
 ' _60_/HI\n',
 ' _61_/HI\n',
 ' clkload0/X\n',
 ' u_sram/dout1[0]\n',
 ' u_sram/dout1[10]\n',
 ' u_sram/dout1[11]\n',
 ' u_sram/dout1[12]\n',
 ' u_sram/dout1[13]\n',
 ' u_sram/dout1[14]\n',
 ' u_sram/dout1[15]\n',
 ' u_sram/dout1[16]\n',
 ' u_sram/dout1[17]\n',
 ' u_sram/dout1[18]\n',
 ' u_sram/dout1[19]\n',
 ' u_sram/dout1[1]\n',
 ' u_sram/dout1[20]\n',
 ' u_sram/dout1[21]\n',
 ' u_sram/dout1[22]\n',
 ' u_sram/dout1[23]\n',
 ' u_sram/dout1[24]\n',
 ' u_sram/dout1[25]\n',
 ' u_sram/dout1[26]\n',
 ' u_sram/dout1[27]\n',
 ' u_sram/dout1[28]\n',
 ' u_sram/dout1[29]\n',
 ' u_sram/dout1[2]\n',
 ' u_sram/dout1[30]\n',
 ' u_sram/dout1[31]\n',
 ' u_sram/dout1[3]\n',
 ' u_sram/dout1[4]\n',
 ' u_sram/dout1[5]\n',
 ' u_sram/dout1[6]\n',
 ' u_sram/dout1[7]\n',
 ' u_sram/dout1[8]\n',
 ' u_sram/dout1[9]\n',
 'Found 0 partially unannotated drivers.\n',
 '\n']
Reported nets:
['axi_araddr_i[0]',
 'axi_araddr_i[10]',
 'axi_araddr_i[11]',
 'axi_araddr_i[12]',
 'axi_araddr_i[13]',
 'axi_araddr_i[14]',
 'axi_araddr_i[15]',
 'axi_araddr_i[16]',
 'axi_araddr_i[17]',
 'axi_araddr_i[18]',
 'axi_araddr_i[19]',
 'axi_araddr_i[1]',
 'axi_araddr_i[20]',
 'axi_araddr_i[21]',
 'axi_araddr_i[22]',
 'axi_araddr_i[23]',
 'axi_araddr_i[24]',
 'axi_araddr_i[25]',
 'axi_araddr_i[26]',
 'axi_araddr_i[27]',
 'axi_araddr_i[28]',
 'axi_araddr_i[29]',
 'axi_araddr_i[30]',
 'axi_araddr_i[31]',
 'axi_arprot_i[0]',
 'axi_arprot_i[1]',
 'axi_arprot_i[2]',
 'axi_awaddr_i[0]',
 'axi_awaddr_i[10]',
 'axi_awaddr_i[11]',
 'axi_awaddr_i[12]',
 'axi_awaddr_i[13]',
 'axi_awaddr_i[14]',
 'axi_awaddr_i[15]',
 'axi_awaddr_i[16]',
 'axi_awaddr_i[17]',
 'axi_awaddr_i[18]',
 'axi_awaddr_i[19]',
 'axi_awaddr_i[1]',
 'axi_awaddr_i[20]',
 'axi_awaddr_i[21]',
 'axi_awaddr_i[22]',
 'axi_awaddr_i[23]',
 'axi_awaddr_i[24]',
 'axi_awaddr_i[25]',
 'axi_awaddr_i[26]',
 'axi_awaddr_i[27]',
 'axi_awaddr_i[28]',
 'axi_awaddr_i[29]',
 'axi_awaddr_i[30]',
 'axi_awaddr_i[31]',
 'axi_awprot_i[0]',
 'axi_awprot_i[1]',
 'axi_awprot_i[2]',
 '_49_/LO',
 '_50_/HI',
 '_51_/HI',
 '_52_/HI',
 '_53_/HI',
 '_54_/HI',
 '_55_/HI',
 '_56_/HI',
 '_57_/HI',
 '_58_/HI',
 '_59_/HI',
 '_60_/HI',
 '_61_/HI',
 'clkload0/X',
 'u_sram/dout1[0]',
 'u_sram/dout1[10]',
 'u_sram/dout1[11]',
 'u_sram/dout1[12]',
 'u_sram/dout1[13]',
 'u_sram/dout1[14]',
 'u_sram/dout1[15]',
 'u_sram/dout1[16]',
 'u_sram/dout1[17]',
 'u_sram/dout1[18]',
 'u_sram/dout1[19]',
 'u_sram/dout1[1]',
 'u_sram/dout1[20]',
 'u_sram/dout1[21]',
 'u_sram/dout1[22]',
 'u_sram/dout1[23]',
 'u_sram/dout1[24]',
 'u_sram/dout1[25]',
 'u_sram/dout1[26]',
 'u_sram/dout1[27]',
 'u_sram/dout1[28]',
 'u_sram/dout1[29]',
 'u_sram/dout1[2]',
 'u_sram/dout1[30]',
 'u_sram/dout1[31]',
 'u_sram/dout1[3]',
 'u_sram/dout1[4]',
 'u_sram/dout1[5]',
 'u_sram/dout1[6]',
 'u_sram/dout1[7]',
 'u_sram/dout1[8]',
 'u_sram/dout1[9]']
Filtered nets:
[]
done
